time,v(Vout),v(V1)
0,0.501461269,0.5
1E-12,0.501461269,0.5
2E-12,0.501461269,0.5
4E-12,0.501461269,0.5
8E-12,0.501461269,0.5
1.6E-11,0.501461269,0.5
3.2E-11,0.501461269,0.5
6.4E-11,0.501461269,0.5
1.28E-10,0.501461269,0.5
2.28E-10,0.501461269,0.5
3.28E-10,0.501461269,0.5
4.28E-10,0.501461269,0.5
5.28E-10,0.501461269,0.5
6.28E-10,0.501461269,0.5
7.28E-10,0.501461269,0.5
8.28E-10,0.501461269,0.5
9.28E-10,0.501461269,0.5
1.028E-09,0.501461269,0.5
1.128E-09,0.501461269,0.5
1.228E-09,0.501461269,0.5
1.328E-09,0.501461269,0.5
1.428E-09,0.501461269,0.5
1.528E-09,0.501461269,0.5
1.628E-09,0.501461269,0.5
1.728E-09,0.501461269,0.5
1.828E-09,0.501461269,0.5
1.928E-09,0.501461269,0.5
2.028E-09,0.501461269,0.5
2.128E-09,0.501461269,0.5
2.228E-09,0.501461269,0.5
2.328E-09,0.501461269,0.5
2.428E-09,0.501461269,0.5
2.528E-09,0.501461269,0.5
2.628E-09,0.501461269,0.5
2.728E-09,0.501461269,0.5
2.828E-09,0.501461269,0.5
2.928E-09,0.501461269,0.5
3.028E-09,0.501461269,0.5
3.128E-09,0.501461269,0.5
3.228E-09,0.501461269,0.5
3.328E-09,0.501461269,0.5
3.428E-09,0.501461269,0.5
3.528E-09,0.501461269,0.5
3.628E-09,0.501461269,0.5
3.728E-09,0.501461269,0.5
3.828E-09,0.501461269,0.5
3.928E-09,0.501461269,0.5
4.028E-09,0.501461269,0.5
4.128E-09,0.501461268,0.5
4.228E-09,0.501461268,0.5
4.328E-09,0.501461268,0.5
4.428E-09,0.501461268,0.5
4.528E-09,0.501461268,0.5
4.628E-09,0.501461268,0.5
4.728E-09,0.501461268,0.5
4.828E-09,0.501461268,0.5
4.928E-09,0.501461268,0.5
5.028E-09,0.501461268,0.5
5.128E-09,0.501461268,0.5
5.228E-09,0.501461268,0.5
5.328E-09,0.501461268,0.5
5.428E-09,0.501461268,0.5
5.528E-09,0.501461268,0.5
5.628E-09,0.501461268,0.5
5.728E-09,0.501461268,0.5
5.828E-09,0.501461268,0.5
5.928E-09,0.501461268,0.5
6.028E-09,0.501461268,0.5
6.128E-09,0.501461268,0.5
6.228E-09,0.501461268,0.5
6.328E-09,0.501461268,0.5
6.428E-09,0.501461268,0.5
6.528E-09,0.501461268,0.5
6.628E-09,0.501461268,0.5
6.728E-09,0.501461268,0.5
6.828E-09,0.501461268,0.5
6.928E-09,0.501461268,0.5
7.028E-09,0.501461268,0.5
7.128E-09,0.501461268,0.5
7.228E-09,0.501461268,0.5
7.328E-09,0.501461268,0.5
7.428E-09,0.501461268,0.5
7.528E-09,0.501461268,0.5
7.628E-09,0.501461268,0.5
7.728E-09,0.501461268,0.5
7.828E-09,0.501461268,0.5
7.928E-09,0.501461268,0.5
8.028E-09,0.501461268,0.5
8.128E-09,0.501461268,0.5
8.228E-09,0.501461268,0.5
8.328E-09,0.501461268,0.5
8.428E-09,0.501461268,0.5
8.528E-09,0.501461268,0.5
8.628E-09,0.501461268,0.5
8.728E-09,0.501461268,0.5
8.828E-09,0.501461268,0.5
8.928E-09,0.501461268,0.5
9.028E-09,0.501461268,0.5
9.128E-09,0.501461268,0.5
9.228E-09,0.501461268,0.5
9.328E-09,0.501461268,0.5
9.428E-09,0.501461268,0.5
9.528E-09,0.501461268,0.5
9.628E-09,0.501461268,0.5
9.728E-09,0.501461268,0.5
9.828E-09,0.501461268,0.5
9.928E-09,0.501461268,0.5
1E-08,0.501461268,0.5
1.001E-08,0.501461487,0.5001
1.003E-08,0.50146192,0.5003
1.007E-08,0.501462815,0.5007
1.015E-08,0.501464723,0.5015
1.025E-08,0.50146732,0.5025
1.035E-08,0.501470147,0.5035
1.045E-08,0.501473195,0.5045
1.055E-08,0.501476458,0.5055
1.065E-08,0.501479928,0.5065
1.075E-08,0.501483598,0.5075
1.085E-08,0.501487461,0.5085
1.095E-08,0.501491511,0.5095
1.1E-08,0.501493604,0.51
1.101E-08,0.501493813,0.51
1.103E-08,0.501494238,0.51
1.107E-08,0.50149508,0.51
1.115E-08,0.501496737,0.51
1.125E-08,0.501498755,0.51
1.135E-08,0.501500717,0.51
1.145E-08,0.501502624,0.51
1.155E-08,0.501504478,0.51
1.165E-08,0.501506281,0.51
1.175E-08,0.501508035,0.51
1.185E-08,0.501509741,0.51
1.195E-08,0.501511402,0.51
1.205E-08,0.501513019,0.51
1.215E-08,0.501514593,0.51
1.225E-08,0.501516126,0.51
1.235E-08,0.501517621,0.51
1.245E-08,0.501519078,0.51
1.255E-08,0.501520499,0.51
1.265E-08,0.501521886,0.51
1.275E-08,0.50152324,0.51
1.285E-08,0.501524562,0.51
1.295E-08,0.501525854,0.51
1.305E-08,0.501527117,0.51
1.315E-08,0.501528353,0.51
1.325E-08,0.501529563,0.51
1.335E-08,0.501530747,0.51
1.345E-08,0.501531908,0.51
1.355E-08,0.501533046,0.51
1.365E-08,0.501534162,0.51
1.375E-08,0.501535258,0.51
1.385E-08,0.501536334,0.51
1.395E-08,0.501537392,0.51
1.405E-08,0.501538432,0.51
1.415E-08,0.501539456,0.51
1.425E-08,0.501540464,0.51
1.435E-08,0.501541457,0.51
1.445E-08,0.501542436,0.51
1.455E-08,0.501543402,0.51
1.465E-08,0.501544356,0.51
1.475E-08,0.501545298,0.51
1.485E-08,0.501546229,0.51
1.495E-08,0.501547149,0.51
1.505E-08,0.50154806,0.51
1.515E-08,0.501548963,0.51
1.525E-08,0.501549857,0.51
1.535E-08,0.501550743,0.51
1.545E-08,0.501551622,0.51
1.555E-08,0.501552495,0.51
1.565E-08,0.501553361,0.51
1.575E-08,0.501554222,0.51
1.585E-08,0.501555079,0.51
1.595E-08,0.50155593,0.51
1.605E-08,0.501556778,0.51
1.615E-08,0.501557622,0.51
1.625E-08,0.501558463,0.51
1.635E-08,0.501559302,0.51
1.645E-08,0.501560138,0.51
1.655E-08,0.501560972,0.51
1.665E-08,0.501561805,0.51
1.675E-08,0.501562636,0.51
1.685E-08,0.501563467,0.51
1.695E-08,0.501564297,0.51
1.705E-08,0.501565128,0.51
1.715E-08,0.501565958,0.51
1.725E-08,0.501566789,0.51
1.735E-08,0.501567621,0.51
1.745E-08,0.501568454,0.51
1.755E-08,0.501569288,0.51
1.765E-08,0.501570124,0.51
1.775E-08,0.501570962,0.51
1.785E-08,0.501571803,0.51
1.795E-08,0.501572645,0.51
1.805E-08,0.501573491,0.51
1.815E-08,0.501574339,0.51
1.825E-08,0.501575191,0.51
1.835E-08,0.501576046,0.51
1.845E-08,0.501576905,0.51
1.855E-08,0.501577767,0.51
1.865E-08,0.501578634,0.51
1.875E-08,0.501579504,0.51
1.885E-08,0.501580379,0.51
1.895E-08,0.501581259,0.51
1.905E-08,0.501582144,0.51
1.915E-08,0.501583033,0.51
1.925E-08,0.501583928,0.51
1.935E-08,0.501584827,0.51
1.945E-08,0.501585733,0.51
1.955E-08,0.501586644,0.51
1.965E-08,0.501587561,0.51
1.975E-08,0.501588483,0.51
1.985E-08,0.501589412,0.51
1.995E-08,0.501590347,0.51
2.005E-08,0.501591288,0.51
2.015E-08,0.501592236,0.51
2.025E-08,0.501593191,0.51
2.035E-08,0.501594152,0.51
2.045E-08,0.50159512,0.51
2.055E-08,0.501596095,0.51
2.065E-08,0.501597077,0.51
2.075E-08,0.501598066,0.51
2.085E-08,0.501599063,0.51
2.095E-08,0.501600067,0.51
2.105E-08,0.501601079,0.51
2.115E-08,0.501602098,0.51
2.125E-08,0.501603125,0.51
2.135E-08,0.50160416,0.51
2.145E-08,0.501605203,0.51
2.155E-08,0.501606254,0.51
2.165E-08,0.501607313,0.51
2.175E-08,0.501608381,0.51
2.185E-08,0.501609456,0.51
2.195E-08,0.50161054,0.51
2.205E-08,0.501611633,0.51
2.215E-08,0.501612734,0.51
2.225E-08,0.501613844,0.51
2.235E-08,0.501614962,0.51
2.245E-08,0.501616089,0.51
2.255E-08,0.501617225,0.51
2.265E-08,0.50161837,0.51
2.275E-08,0.501619524,0.51
2.285E-08,0.501620687,0.51
2.295E-08,0.501621859,0.51
2.305E-08,0.50162304,0.51
2.315E-08,0.501624231,0.51
2.325E-08,0.501625431,0.51
2.335E-08,0.50162664,0.51
2.345E-08,0.501627858,0.51
2.355E-08,0.501629086,0.51
2.365E-08,0.501630324,0.51
2.375E-08,0.501631571,0.51
2.385E-08,0.501632828,0.51
2.395E-08,0.501634094,0.51
2.405E-08,0.50163537,0.51
2.415E-08,0.501636656,0.51
2.425E-08,0.501637951,0.51
2.435E-08,0.501639256,0.51
2.445E-08,0.501640571,0.51
2.455E-08,0.501641896,0.51
2.465E-08,0.501643231,0.51
2.475E-08,0.501644576,0.51
2.485E-08,0.501645931,0.51
2.495E-08,0.501647296,0.51
2.505E-08,0.501648671,0.51
2.515E-08,0.501650055,0.51
2.525E-08,0.50165145,0.51
2.535E-08,0.501652855,0.51
2.545E-08,0.501654271,0.51
2.555E-08,0.501655696,0.51
2.565E-08,0.501657131,0.51
2.575E-08,0.501658577,0.51
2.585E-08,0.501660033,0.51
2.595E-08,0.501661499,0.51
2.605E-08,0.501662975,0.51
2.615E-08,0.501664461,0.51
2.625E-08,0.501665958,0.51
2.635E-08,0.501667465,0.51
2.645E-08,0.501668982,0.51
2.655E-08,0.50167051,0.51
2.665E-08,0.501672047,0.51
2.675E-08,0.501673595,0.51
2.685E-08,0.501675153,0.51
2.695E-08,0.501676722,0.51
2.705E-08,0.501678301,0.51
2.715E-08,0.50167989,0.51
2.725E-08,0.501681489,0.51
2.735E-08,0.501683098,0.51
2.745E-08,0.501684718,0.51
2.755E-08,0.501686348,0.51
2.765E-08,0.501687988,0.51
2.775E-08,0.501689639,0.51
2.785E-08,0.501691299,0.51
2.795E-08,0.50169297,0.51
2.805E-08,0.501694651,0.51
2.815E-08,0.501696343,0.51
2.825E-08,0.501698044,0.51
2.835E-08,0.501699756,0.51
2.845E-08,0.501701477,0.51
2.855E-08,0.501703209,0.51
2.865E-08,0.501704951,0.51
2.875E-08,0.501706703,0.51
2.885E-08,0.501708465,0.51
2.895E-08,0.501710237,0.51
2.905E-08,0.501712019,0.51
2.915E-08,0.501713811,0.51
2.925E-08,0.501715613,0.51
2.935E-08,0.501717424,0.51
2.945E-08,0.501719246,0.51
2.955E-08,0.501721078,0.51
2.965E-08,0.501722919,0.51
2.975E-08,0.501724771,0.51
2.985E-08,0.501726632,0.51
2.995E-08,0.501728502,0.51
3.005E-08,0.501730383,0.51
3.015E-08,0.501732273,0.51
3.025E-08,0.501734173,0.51
3.035E-08,0.501736083,0.51
3.045E-08,0.501738002,0.51
3.055E-08,0.50173993,0.51
3.065E-08,0.501741869,0.51
3.075E-08,0.501743816,0.51
3.085E-08,0.501745773,0.51
3.095E-08,0.50174774,0.51
3.105E-08,0.501749715,0.51
3.115E-08,0.5017517,0.51
3.125E-08,0.501753695,0.51
3.135E-08,0.501755698,0.51
3.145E-08,0.501757711,0.51
3.155E-08,0.501759733,0.51
3.165E-08,0.501761764,0.51
3.175E-08,0.501763804,0.51
3.185E-08,0.501765853,0.51
3.195E-08,0.501767911,0.51
3.205E-08,0.501769978,0.51
3.215E-08,0.501772054,0.51
3.225E-08,0.501774139,0.51
3.235E-08,0.501776232,0.51
3.245E-08,0.501778334,0.51
3.255E-08,0.501780445,0.51
3.265E-08,0.501782565,0.51
3.275E-08,0.501784693,0.51
3.285E-08,0.501786829,0.51
3.295E-08,0.501788974,0.51
3.305E-08,0.501791128,0.51
3.315E-08,0.501793289,0.51
3.325E-08,0.50179546,0.51
3.335E-08,0.501797638,0.51
3.345E-08,0.501799825,0.51
3.355E-08,0.501802019,0.51
3.365E-08,0.501804222,0.51
3.375E-08,0.501806433,0.51
3.385E-08,0.501808652,0.51
3.395E-08,0.501810879,0.51
3.405E-08,0.501813114,0.51
3.415E-08,0.501815357,0.51
3.425E-08,0.501817607,0.51
3.435E-08,0.501819865,0.51
3.445E-08,0.501822131,0.51
3.455E-08,0.501824404,0.51
3.465E-08,0.501826685,0.51
3.475E-08,0.501828974,0.51
3.485E-08,0.50183127,0.51
3.495E-08,0.501833573,0.51
3.505E-08,0.501835884,0.51
3.515E-08,0.501838202,0.51
3.525E-08,0.501840527,0.51
3.535E-08,0.501842859,0.51
3.545E-08,0.501845199,0.51
3.555E-08,0.501847545,0.51
3.565E-08,0.501849899,0.51
3.575E-08,0.501852259,0.51
3.585E-08,0.501854626,0.51
3.595E-08,0.501857,0.51
3.605E-08,0.501859381,0.51
3.615E-08,0.501861769,0.51
3.625E-08,0.501864163,0.51
3.635E-08,0.501866564,0.51
3.645E-08,0.501868971,0.51
3.655E-08,0.501871385,0.51
3.665E-08,0.501873805,0.51
3.675E-08,0.501876231,0.51
3.685E-08,0.501878664,0.51
3.695E-08,0.501881103,0.51
3.705E-08,0.501883548,0.51
3.715E-08,0.501885999,0.51
3.725E-08,0.501888457,0.51
3.735E-08,0.50189092,0.51
3.745E-08,0.501893389,0.51
3.755E-08,0.501895864,0.51
3.765E-08,0.501898345,0.51
3.775E-08,0.501900832,0.51
3.785E-08,0.501903324,0.51
3.795E-08,0.501905822,0.51
3.805E-08,0.501908326,0.51
3.815E-08,0.501910835,0.51
3.825E-08,0.50191335,0.51
3.835E-08,0.50191587,0.51
3.845E-08,0.501918395,0.51
3.855E-08,0.501920926,0.51
3.865E-08,0.501923462,0.51
3.875E-08,0.501926003,0.51
3.885E-08,0.50192855,0.51
3.895E-08,0.501931101,0.51
3.905E-08,0.501933658,0.51
3.915E-08,0.501936219,0.51
3.925E-08,0.501938785,0.51
3.935E-08,0.501941356,0.51
3.945E-08,0.501943932,0.51
3.955E-08,0.501946513,0.51
3.965E-08,0.501949098,0.51
3.975E-08,0.501951688,0.51
3.985E-08,0.501954283,0.51
3.995E-08,0.501956882,0.51
4.005E-08,0.501959485,0.51
4.015E-08,0.501962093,0.51
4.025E-08,0.501964706,0.51
4.035E-08,0.501967322,0.51
4.045E-08,0.501969943,0.51
4.055E-08,0.501972568,0.51
4.065E-08,0.501975198,0.51
4.075E-08,0.501977831,0.51
4.085E-08,0.501980468,0.51
4.095E-08,0.50198311,0.51
4.105E-08,0.501985755,0.51
4.115E-08,0.501988404,0.51
4.125E-08,0.501991057,0.51
4.135E-08,0.501993714,0.51
4.145E-08,0.501996375,0.51
4.155E-08,0.501999039,0.51
4.165E-08,0.502001707,0.51
4.175E-08,0.502004378,0.51
4.185E-08,0.502007053,0.51
4.195E-08,0.502009732,0.51
4.205E-08,0.502012414,0.51
4.215E-08,0.502015099,0.51
4.225E-08,0.502017788,0.51
4.235E-08,0.50202048,0.51
4.245E-08,0.502023175,0.51
4.255E-08,0.502025873,0.51
4.265E-08,0.502028575,0.51
4.275E-08,0.502031279,0.51
4.285E-08,0.502033987,0.51
4.295E-08,0.502036698,0.51
4.305E-08,0.502039412,0.51
4.315E-08,0.502042128,0.51
4.325E-08,0.502044848,0.51
4.335E-08,0.50204757,0.51
4.345E-08,0.502050295,0.51
4.355E-08,0.502053023,0.51
4.365E-08,0.502055754,0.51
4.375E-08,0.502058487,0.51
4.385E-08,0.502061223,0.51
4.395E-08,0.502063961,0.51
4.405E-08,0.502066702,0.51
4.415E-08,0.502069445,0.51
4.425E-08,0.502072191,0.51
4.435E-08,0.502074939,0.51
4.445E-08,0.50207769,0.51
4.455E-08,0.502080443,0.51
4.465E-08,0.502083198,0.51
4.475E-08,0.502085955,0.51
4.485E-08,0.502088715,0.51
4.495E-08,0.502091477,0.51
4.505E-08,0.502094241,0.51
4.515E-08,0.502097007,0.51
4.525E-08,0.502099775,0.51
4.535E-08,0.502102545,0.51
4.545E-08,0.502105317,0.51
4.555E-08,0.502108091,0.51
4.565E-08,0.502110866,0.51
4.575E-08,0.502113644,0.51
4.585E-08,0.502116423,0.51
4.595E-08,0.502119205,0.51
4.605E-08,0.502121988,0.51
4.615E-08,0.502124772,0.51
4.625E-08,0.502127559,0.51
4.635E-08,0.502130347,0.51
4.645E-08,0.502133136,0.51
4.655E-08,0.502135928,0.51
4.665E-08,0.50213872,0.51
4.675E-08,0.502141515,0.51
4.685E-08,0.50214431,0.51
4.695E-08,0.502147107,0.51
4.705E-08,0.502149906,0.51
4.715E-08,0.502152706,0.51
4.725E-08,0.502155507,0.51
4.735E-08,0.50215831,0.51
4.745E-08,0.502161113,0.51
4.755E-08,0.502163918,0.51
4.765E-08,0.502166725,0.51
4.775E-08,0.502169532,0.51
4.785E-08,0.502172341,0.51
4.795E-08,0.50217515,0.51
4.805E-08,0.502177961,0.51
4.815E-08,0.502180773,0.51
4.825E-08,0.502183586,0.51
4.835E-08,0.5021864,0.51
4.845E-08,0.502189215,0.51
4.855E-08,0.502192031,0.51
4.865E-08,0.502194848,0.51
4.875E-08,0.502197665,0.51
4.885E-08,0.502200484,0.51
4.895E-08,0.502203303,0.51
4.905E-08,0.502206123,0.51
4.915E-08,0.502208944,0.51
4.925E-08,0.502211766,0.51
4.935E-08,0.502214588,0.51
4.945E-08,0.502217412,0.51
4.955E-08,0.502220235,0.51
4.965E-08,0.50222306,0.51
4.975E-08,0.502225885,0.51
4.985E-08,0.502228711,0.51
4.995E-08,0.502231537,0.51
5.005E-08,0.502234364,0.51
5.015E-08,0.502237192,0.51
5.025E-08,0.50224002,0.51
5.035E-08,0.502242848,0.51
5.045E-08,0.502245677,0.51
5.055E-08,0.502248506,0.51
5.065E-08,0.502251336,0.51
5.075E-08,0.502254166,0.51
5.085E-08,0.502256997,0.51
5.095E-08,0.502259828,0.51
5.105E-08,0.502262659,0.51
5.115E-08,0.502265491,0.51
5.125E-08,0.502268323,0.51
5.135E-08,0.502271155,0.51
5.145E-08,0.502273987,0.51
5.155E-08,0.50227682,0.51
5.165E-08,0.502279653,0.51
5.175E-08,0.502282486,0.51
5.185E-08,0.502285319,0.51
5.195E-08,0.502288153,0.51
5.205E-08,0.502290986,0.51
5.215E-08,0.50229382,0.51
5.225E-08,0.502296654,0.51
5.235E-08,0.502299487,0.51
5.245E-08,0.502302321,0.51
5.255E-08,0.502305155,0.51
5.265E-08,0.502307989,0.51
5.275E-08,0.502310824,0.51
5.285E-08,0.502313658,0.51
5.295E-08,0.502316492,0.51
5.305E-08,0.502319326,0.51
5.315E-08,0.50232216,0.51
5.325E-08,0.502324994,0.51
5.335E-08,0.502327827,0.51
5.345E-08,0.502330661,0.51
5.355E-08,0.502333495,0.51
5.365E-08,0.502336328,0.51
5.375E-08,0.502339162,0.51
5.385E-08,0.502341995,0.51
5.395E-08,0.502344828,0.51
5.405E-08,0.502347661,0.51
5.415E-08,0.502350493,0.51
5.425E-08,0.502353326,0.51
5.435E-08,0.502356158,0.51
5.445E-08,0.50235899,0.51
5.455E-08,0.502361822,0.51
5.465E-08,0.502364653,0.51
5.475E-08,0.502367484,0.51
5.485E-08,0.502370315,0.51
5.495E-08,0.502373146,0.51
5.505E-08,0.502375976,0.51
5.515E-08,0.502378806,0.51
5.525E-08,0.502381636,0.51
5.535E-08,0.502384465,0.51
5.545E-08,0.502387294,0.51
5.555E-08,0.502390122,0.51
5.565E-08,0.50239295,0.51
5.575E-08,0.502395778,0.51
5.585E-08,0.502398605,0.51
5.595E-08,0.502401432,0.51
5.605E-08,0.502404259,0.51
5.615E-08,0.502407085,0.51
5.625E-08,0.50240991,0.51
5.635E-08,0.502412736,0.51
5.645E-08,0.50241556,0.51
5.655E-08,0.502418384,0.51
5.665E-08,0.502421208,0.51
5.675E-08,0.502424031,0.51
5.685E-08,0.502426854,0.51
5.695E-08,0.502429676,0.51
5.705E-08,0.502432498,0.51
5.715E-08,0.502435319,0.51
5.725E-08,0.502438139,0.51
5.735E-08,0.502440959,0.51
5.745E-08,0.502443779,0.51
5.755E-08,0.502446598,0.51
5.765E-08,0.502449416,0.51
5.775E-08,0.502452234,0.51
5.785E-08,0.502455051,0.51
5.795E-08,0.502457867,0.51
5.805E-08,0.502460683,0.51
5.815E-08,0.502463498,0.51
5.825E-08,0.502466313,0.51
5.835E-08,0.502469127,0.51
5.845E-08,0.50247194,0.51
5.855E-08,0.502474753,0.51
5.865E-08,0.502477565,0.51
5.875E-08,0.502480377,0.51
5.885E-08,0.502483187,0.51
5.895E-08,0.502485997,0.51
5.905E-08,0.502488807,0.51
5.915E-08,0.502491616,0.51
5.925E-08,0.502494424,0.51
5.935E-08,0.502497231,0.51
5.945E-08,0.502500037,0.51
5.955E-08,0.502502843,0.51
5.965E-08,0.502505648,0.51
5.975E-08,0.502508453,0.51
5.985E-08,0.502511257,0.51
5.995E-08,0.50251406,0.51
6.005E-08,0.502516862,0.51
6.015E-08,0.502519663,0.51
6.025E-08,0.502522464,0.51
6.035E-08,0.502525264,0.51
6.045E-08,0.502528063,0.51
6.055E-08,0.502530862,0.51
6.065E-08,0.502533659,0.51
6.075E-08,0.502536456,0.51
6.085E-08,0.502539253,0.51
6.095E-08,0.502542048,0.51
6.105E-08,0.502544842,0.51
6.115E-08,0.502547636,0.51
6.125E-08,0.502550429,0.51
6.135E-08,0.502553221,0.51
6.145E-08,0.502556013,0.51
6.155E-08,0.502558803,0.51
6.165E-08,0.502561593,0.51
6.175E-08,0.502564382,0.51
6.185E-08,0.50256717,0.51
6.195E-08,0.502569957,0.51
6.205E-08,0.502572744,0.51
6.215E-08,0.50257553,0.51
6.225E-08,0.502578314,0.51
6.235E-08,0.502581098,0.51
6.245E-08,0.502583881,0.51
6.255E-08,0.502586664,0.51
6.265E-08,0.502589445,0.51
6.275E-08,0.502592226,0.51
6.285E-08,0.502595005,0.51
6.295E-08,0.502597784,0.51
6.305E-08,0.502600562,0.51
6.315E-08,0.502603339,0.51
6.325E-08,0.502606116,0.51
6.335E-08,0.502608891,0.51
6.345E-08,0.502611666,0.51
6.355E-08,0.502614439,0.51
6.365E-08,0.502617212,0.51
6.375E-08,0.502619984,0.51
6.385E-08,0.502622755,0.51
6.395E-08,0.502625525,0.51
6.405E-08,0.502628294,0.51
6.415E-08,0.502631063,0.51
6.425E-08,0.50263383,0.51
6.435E-08,0.502636597,0.51
6.445E-08,0.502639363,0.51
6.455E-08,0.502642127,0.51
6.465E-08,0.502644891,0.51
6.475E-08,0.502647654,0.51
6.485E-08,0.502650416,0.51
6.495E-08,0.502653178,0.51
6.505E-08,0.502655938,0.51
6.515E-08,0.502658697,0.51
6.525E-08,0.502661456,0.51
6.535E-08,0.502664213,0.51
6.545E-08,0.50266697,0.51
6.555E-08,0.502669726,0.51
6.565E-08,0.502672481,0.51
6.575E-08,0.502675234,0.51
6.585E-08,0.502677987,0.51
6.595E-08,0.50268074,0.51
6.605E-08,0.502683491,0.51
6.615E-08,0.502686241,0.51
6.625E-08,0.50268899,0.51
6.635E-08,0.502691739,0.51
6.645E-08,0.502694486,0.51
6.655E-08,0.502697233,0.51
6.665E-08,0.502699978,0.51
6.675E-08,0.502702723,0.51
6.685E-08,0.502705467,0.51
6.695E-08,0.50270821,0.51
6.705E-08,0.502710952,0.51
6.715E-08,0.502713693,0.51
6.725E-08,0.502716433,0.51
6.735E-08,0.502719172,0.51
6.745E-08,0.50272191,0.51
6.755E-08,0.502724647,0.51
6.765E-08,0.502727384,0.51
6.775E-08,0.502730119,0.51
6.785E-08,0.502732854,0.51
6.795E-08,0.502735587,0.51
6.805E-08,0.50273832,0.51
6.815E-08,0.502741051,0.51
6.825E-08,0.502743782,0.51
6.835E-08,0.502746512,0.51
6.845E-08,0.502749241,0.51
6.855E-08,0.502751969,0.51
6.865E-08,0.502754696,0.51
6.875E-08,0.502757422,0.51
6.885E-08,0.502760147,0.51
6.895E-08,0.502762871,0.51
6.905E-08,0.502765594,0.51
6.915E-08,0.502768316,0.51
6.925E-08,0.502771038,0.51
6.935E-08,0.502773758,0.51
6.945E-08,0.502776477,0.51
6.955E-08,0.502779196,0.51
6.965E-08,0.502781914,0.51
6.975E-08,0.50278463,0.51
6.985E-08,0.502787346,0.51
6.995E-08,0.502790061,0.51
7.005E-08,0.502792774,0.51
7.015E-08,0.502795487,0.51
7.025E-08,0.502798199,0.51
7.035E-08,0.50280091,0.51
7.045E-08,0.50280362,0.51
7.055E-08,0.502806329,0.51
7.065E-08,0.502809038,0.51
7.075E-08,0.502811745,0.51
7.085E-08,0.502814451,0.51
7.095E-08,0.502817157,0.51
7.105E-08,0.502819861,0.51
7.115E-08,0.502822564,0.51
7.125E-08,0.502825267,0.51
7.135E-08,0.502827969,0.51
7.145E-08,0.502830669,0.51
7.155E-08,0.502833369,0.51
7.165E-08,0.502836068,0.51
7.175E-08,0.502838766,0.51
7.185E-08,0.502841463,0.51
7.195E-08,0.502844159,0.51
7.205E-08,0.502846854,0.51
7.215E-08,0.502849548,0.51
7.225E-08,0.502852241,0.51
7.235E-08,0.502854933,0.51
7.245E-08,0.502857624,0.51
7.255E-08,0.502860315,0.51
7.265E-08,0.502863004,0.51
7.275E-08,0.502865693,0.51
7.285E-08,0.50286838,0.51
7.295E-08,0.502871067,0.51
7.305E-08,0.502873753,0.51
7.315E-08,0.502876437,0.51
7.325E-08,0.502879121,0.51
7.335E-08,0.502881804,0.51
