v-sweep,v(Vout),v(V1),v(V2),v(X1.net8)
0,0.967079876,0,0,1.04897884
0.001,1.38419321,0.001,0,1.04939482
0.002,1.67459836,0.002,0,1.04980654
0.003,1.70741537,0.003,0,1.05021334
0.004,1.72132969,0.004,0,1.05061658
0.005,1.73022886,0.005,0,1.05101634
0.006,1.7363957,0.006,0,1.05141264
0.007,1.74140747,0.007,0,1.0518055
0.008,1.7456094,0.008,0,1.05219491
0.009,1.74918736,0.009,0,1.05258089
0.01,1.75229853,0.01,0,1.05296344
0.011,1.75504932,0.011,0,1.05334256
0.012,1.75751322,0.012,0,1.05371827
0.013,1.75974327,0.013,0,1.05409056
0.014,1.7617791,0.014,0,1.05445944
0.015,1.76365096,0.015,0,1.05482493
0.016,1.76538254,0.016,0,1.05518703
0.017,1.76699264,0.017,0,1.05554574
0.018,1.76849652,0.018,0,1.05590108
0.019,1.76990668,0.019,0,1.05625306
0.02,1.77123347,0.02,0,1.05660168
0.021,1.77248563,0.021,0,1.05694696
0.022,1.77367054,0.022,0,1.0572889
0.023,1.7747945,0.023,0,1.05762753
0.024,1.77586294,0.024,0,1.05796283
0.025,1.77688059,0.025,0,1.05829485
0.026,1.77785158,0.026,0,1.05862358
0.027,1.77877953,0.027,0,1.05894903
0.028,1.77966764,0.028,0,1.05927123
0.029,1.78051872,0.029,0,1.05959017
0.03,1.78133531,0.03,0,1.05990589
0.031,1.7821197,0.031,0,1.06021839
0.032,1.78287389,0.032,0,1.0605277
0.033,1.78359971,0.033,0,1.06083381
0.034,1.78429885,0.034,0,1.06113676
0.035,1.78497278,0.035,0,1.06143656
0.036,1.78562287,0.036,0,1.06173322
0.037,1.78625038,0.037,0,1.06202677
0.038,1.78685645,0.038,0,1.06231722
0.039,1.7874421,0.039,0,1.06260458
0.04,1.78800831,0.04,0,1.06288889
0.041,1.78855593,0.041,0,1.06317016
0.042,1.78908579,0.042,0,1.06344841
0.043,1.78959861,0.043,0,1.06372366
0.044,1.79009509,0.044,0,1.06399593
0.045,1.79057586,0.045,0,1.06426524
0.046,1.79104149,0.046,0,1.06453163
0.047,1.79149253,0.047,0,1.0647951
0.048,1.79192945,0.048,0,1.06505569
0.049,1.79235272,0.049,0,1.06531341
0.05,1.79276275,0.05,0,1.0655683
0.051,1.79315992,0.051,0,1.06582038
0.052,1.79354459,0.052,0,1.06606967
0.053,1.79391705,0.053,0,1.06631621
0.054,1.79427761,0.054,0,1.06656002
0.055,1.79462652,0.055,0,1.06680114
0.056,1.794964,0.056,0,1.06703959
0.057,1.79529026,0.057,0,1.06727541
0.058,1.79560545,0.058,0,1.06750862
0.059,1.79590973,0.059,0,1.06773928
0.06,1.7962032,0.06,0,1.0679674
0.061,1.79648597,0.061,0,1.06819303
0.062,1.79675807,0.062,0,1.06841622
0.063,1.79701953,0.063,0,1.068637
0.064,1.79727036,0.064,0,1.06885543
0.065,1.79751051,0.065,0,1.06907154
0.066,1.79773992,0.066,0,1.0692854
0.067,1.79795848,0.067,0,1.06949705
0.068,1.79816608,0.068,0,1.06970657
0.069,1.79836254,0.069,0,1.069914
0.07,1.79854769,0.07,0,1.07011943
0.071,1.79872133,0.071,0,1.07032293
0.072,1.79888324,0.072,0,1.07052456
0.073,1.79903321,0.073,0,1.07072442
0.074,1.79917104,0.074,0,1.07092259
0.075,1.79929659,0.075,0,1.07111916
0.076,1.79940979,0.076,0,1.07131421
0.077,1.79951065,0.077,0,1.07150784
0.078,1.79959936,0.078,0,1.07170012
0.079,1.79967623,0.079,0,1.07189112
0.08,1.79974182,0.08,0,1.0720809
0.081,1.79979684,0.081,0,1.0722695
0.082,1.79984221,0.082,0,1.07245693
0.083,1.79987896,0.083,0,1.0726432
0.084,1.79990821,0.084,0,1.07282828
0.085,1.79993111,0.085,0,1.07301215
0.086,1.79994877,0.086,0,1.07319478
0.087,1.79996219,0.087,0,1.0733761
0.088,1.79997226,0.088,0,1.07355608
0.089,1.79997973,0.089,0,1.07373468
0.09,1.79998521,0.09,0,1.07391185
0.091,1.79998921,0.091,0,1.07408756
0.092,1.7999921,0.092,0,1.07426179
0.093,1.79999418,0.093,0,1.07443452
0.094,1.79999567,0.094,0,1.07460572
0.095,1.79999672,0.095,0,1.07477539
0.096,1.79999747,0.096,0,1.07494351
0.097,1.79999801,0.097,0,1.07511009
0.098,1.79999838,0.098,0,1.07527511
0.099,1.79999864,0.099,0,1.07543858
0.1,1.79999883,0.1,0,1.0756005
0.101,1.79999896,0.101,0,1.07576087
0.102,1.79999905,0.102,0,1.07591969
0.103,1.79999911,0.103,0,1.07607697
0.104,1.79999916,0.104,0,1.07623271
0.105,1.79999919,0.105,0,1.07638692
0.106,1.79999922,0.106,0,1.07653961
0.107,1.79999923,0.107,0,1.07669078
0.108,1.79999924,0.108,0,1.07684044
0.109,1.79999926,0.109,0,1.0769886
0.11,1.79999926,0.11,0,1.07713527
0.111,1.79999927,0.111,0,1.07728046
0.112,1.79999927,0.112,0,1.07742418
0.113,1.79999927,0.113,0,1.07756643
0.114,1.79999927,0.114,0,1.07770723
0.115,1.79999928,0.115,0,1.07784659
0.116,1.79999928,0.116,0,1.07798452
0.117,1.79999928,0.117,0,1.07812103
0.118,1.79999929,0.118,0,1.07825614
0.119,1.79999929,0.119,0,1.07838985
0.12,1.79999929,0.12,0,1.07852218
0.121,1.79999929,0.121,0,1.07865314
0.122,1.79999929,0.122,0,1.07878273
0.123,1.79999929,0.123,0,1.07891099
0.124,1.79999929,0.124,0,1.07903792
0.125,1.7999993,0.125,0,1.07916353
0.126,1.7999993,0.126,0,1.07928784
0.127,1.7999993,0.127,0,1.07941086
0.128,1.7999993,0.128,0,1.07953261
0.129,1.7999993,0.129,0,1.0796531
0.13,1.7999993,0.13,0,1.07977235
0.131,1.7999993,0.131,0,1.07989036
0.132,1.79999931,0.132,0,1.08000717
0.133,1.79999931,0.133,0,1.08012278
0.134,1.79999931,0.134,0,1.08023721
0.135,1.79999931,0.135,0,1.08035048
0.136,1.79999931,0.136,0,1.08046261
0.137,1.79999931,0.137,0,1.08057362
0.138,1.79999931,0.138,0,1.08068352
0.139,1.79999931,0.139,0,1.08079233
0.14,1.79999931,0.14,0,1.08090009
0.141,1.79999931,0.141,0,1.08100679
0.142,1.79999932,0.142,0,1.08111248
0.143,1.79999932,0.143,0,1.08121716
0.144,1.79999932,0.144,0,1.08132088
0.145,1.79999932,0.145,0,1.08142364
0.146,1.79999932,0.146,0,1.08152549
0.147,1.79999932,0.147,0,1.08162645
0.148,1.79999932,0.148,0,1.08172654
0.149,1.79999932,0.149,0,1.08182581
0.15,1.79999932,0.15,0,1.08192429
0.151,1.79999932,0.151,0,1.08202203
0.152,1.79999933,0.152,0,1.08211905
0.153,1.79999932,0.153,0,1.08221541
0.154,1.79999933,0.154,0,1.08231116
0.155,1.79999933,0.155,0,1.08240635
0.156,1.79999933,0.156,0,1.08250106
0.157,1.79999933,0.157,0,1.08259533
0.158,1.79999933,0.158,0,1.08268926
0.159,1.79999933,0.159,0,1.08278291
0.16,1.79999933,0.16,0,1.0828764
0.161,1.79999933,0.161,0,1.08296982
0.162,1.79999933,0.162,0,1.0830633
0.163,1.79999933,0.163,0,1.08315697
0.164,1.79999933,0.164,0,1.08325098
0.165,1.79999933,0.165,0,1.08334553
0.166,1.79999933,0.166,0,1.0834408
0.167,1.79999934,0.167,0,1.08353702
0.168,1.79999934,0.168,0,1.08363447
0.169,1.79999934,0.169,0,1.08373343
0.17,1.79999934,0.17,0,1.08383427
0.171,1.79999934,0.171,0,1.08393737
0.172,1.79999934,0.172,0,1.08404318
0.173,1.79999934,0.173,0,1.08415218
0.174,1.79999934,0.174,0,1.08426501
0.175,1.79999934,0.175,0,1.08438224
0.176,1.79999934,0.176,0,1.08450464
0.177,1.79999934,0.177,0,1.08463297
0.178,1.79999934,0.178,0,1.08476807
0.179,1.79999934,0.179,0,1.08491083
0.18,1.79999934,0.18,0,1.08506219
0.181,1.79999934,0.181,0,1.08522307
0.182,1.79999934,0.182,0,1.08539438
0.183,1.79999934,0.183,0,1.08557698
0.184,1.79999935,0.184,0,1.08577165
0.185,1.79999934,0.185,0,1.08597897
0.186,1.79999935,0.186,0,1.08619945
0.187,1.79999935,0.187,0,1.08643337
0.188,1.79999935,0.188,0,1.08668084
0.189,1.79999935,0.189,0,1.08694186
0.19,1.79999935,0.19,0,1.08721615
0.191,1.79999935,0.191,0,1.0875034
0.192,1.79999935,0.192,0,1.08780314
0.193,1.79999935,0.193,0,1.08811483
0.194,1.79999935,0.194,0,1.08843787
0.195,1.79999935,0.195,0,1.08877162
0.196,1.79999935,0.196,0,1.08911546
0.197,1.79999935,0.197,0,1.08946868
0.198,1.79999935,0.198,0,1.08983073
0.199,1.79999935,0.199,0,1.09020099
0.2,1.79999935,0.2,0,1.09057891
0.201,1.79999935,0.201,0,1.09096386
0.202,1.79999935,0.202,0,1.09135539
0.203,1.79999935,0.203,0,1.09175305
0.204,1.79999935,0.204,0,1.09215635
0.205,1.79999935,0.205,0,1.09256485
0.206,1.79999935,0.206,0,1.09297823
0.207,1.79999935,0.207,0,1.09339607
0.208,1.79999935,0.208,0,1.09381811
0.209,1.79999935,0.209,0,1.09424405
0.21,1.79999935,0.21,0,1.09467352
0.211,1.79999935,0.211,0,1.09510627
0.212,1.79999935,0.212,0,1.09554219
0.213,1.79999935,0.213,0,1.09598087
0.214,1.79999935,0.214,0,1.09642222
0.215,1.79999935,0.215,0,1.09686595
0.216,1.79999935,0.216,0,1.09731203
0.217,1.79999935,0.217,0,1.09776022
0.218,1.79999935,0.218,0,1.09821023
0.219,1.79999935,0.219,0,1.09866205
0.22,1.79999935,0.22,0,1.09911553
0.221,1.79999935,0.221,0,1.09957052
0.222,1.79999935,0.222,0,1.10002682
0.223,1.79999935,0.223,0,1.10048445
0.224,1.79999935,0.224,0,1.10094321
0.225,1.79999935,0.225,0,1.10140296
0.226,1.79999935,0.226,0,1.10186362
0.227,1.79999935,0.227,0,1.1023253
0.228,1.79999935,0.228,0,1.10278766
0.229,1.79999935,0.229,0,1.10325061
0.23,1.79999935,0.23,0,1.10371428
0.231,1.79999935,0.231,0,1.10417838
0.232,1.79999935,0.232,0,1.10464288
0.233,1.79999936,0.233,0,1.10510779
0.234,1.79999936,0.234,0,1.10557304
0.235,1.79999936,0.235,0,1.10603856
0.236,1.79999936,0.236,0,1.10650418
0.237,1.79999936,0.237,0,1.10696984
0.238,1.79999936,0.238,0,1.1074357
0.239,1.79999936,0.239,0,1.10790153
0.24,1.79999936,0.24,0,1.10836722
0.241,1.79999936,0.241,0,1.10883277
0.242,1.79999936,0.242,0,1.10929825
0.243,1.79999936,0.243,0,1.10976352
0.244,1.79999936,0.244,0,1.11022851
0.245,1.79999936,0.245,0,1.1106932
0.246,1.79999936,0.246,0,1.11115748
0.247,1.79999936,0.247,0,1.11162144
0.248,1.79999936,0.248,0,1.11208502
0.249,1.79999936,0.249,0,1.11254799
0.25,1.79999936,0.25,0,1.1130105
0.251,1.79999936,0.251,0,1.1134725
0.252,1.79999936,0.252,0,1.11393378
0.253,1.79999936,0.253,0,1.1143945
0.254,1.79999936,0.254,0,1.1148545
0.255,1.79999936,0.255,0,1.11531401
0.256,1.79999936,0.256,0,1.11577255
0.257,1.79999936,0.257,0,1.11623034
0.258,1.79999936,0.258,0,1.11668739
0.259,1.79999936,0.259,0,1.1171436
0.26,1.79999936,0.26,0,1.11759897
0.261,1.79999936,0.261,0,1.11805332
0.262,1.79999936,0.262,0,1.1185068
0.263,1.79999936,0.263,0,1.11895921
0.264,1.79999936,0.264,0,1.11941072
0.265,1.79999936,0.265,0,1.11986122
0.266,1.79999936,0.266,0,1.1203106
0.267,1.79999936,0.267,0,1.12075884
0.268,1.79999936,0.268,0,1.12120602
0.269,1.79999936,0.269,0,1.12165201
0.27,1.79999936,0.27,0,1.12209682
0.271,1.79999936,0.271,0,1.12254052
0.272,1.79999936,0.272,0,1.12298289
0.273,1.79999936,0.273,0,1.12342402
0.274,1.79999936,0.274,0,1.12386393
0.275,1.79999936,0.275,0,1.1243024
0.276,1.79999936,0.276,0,1.12473957
0.277,1.79999936,0.277,0,1.1251754
0.278,1.79999936,0.278,0,1.12560971
0.279,1.79999936,0.279,0,1.1260427
0.28,1.79999936,0.28,0,1.12647418
0.281,1.79999936,0.281,0,1.12690424
0.282,1.79999936,0.282,0,1.1273328
0.283,1.79999936,0.283,0,1.1277598
0.284,1.79999936,0.284,0,1.12818523
0.285,1.79999936,0.285,0,1.12860916
0.286,1.79999936,0.286,0,1.12903137
0.287,1.79999936,0.287,0,1.12945204
0.288,1.79999936,0.288,0,1.12987109
0.289,1.79999936,0.289,0,1.13028822
0.29,1.79999936,0.29,0,1.13070398
0.291,1.79999936,0.291,0,1.13111764
0.292,1.79999936,0.292,0,1.13152986
0.293,1.79999936,0.293,0,1.13194012
0.294,1.79999936,0.294,0,1.13234884
0.295,1.79999936,0.295,0,1.13275539
0.296,1.79999936,0.296,0,1.1331603
0.297,1.79999936,0.297,0,1.13356322
0.298,1.79999936,0.298,0,1.13396444
0.299,1.79999936,0.299,0,1.13436346
0.3,1.79999936,0.3,0,1.13476061
0.301,1.79999936,0.301,0,1.13515594
0.302,1.79999936,0.302,0,1.13554905
0.303,1.79999936,0.303,0,1.13594049
0.304,1.79999936,0.304,0,1.13632957
0.305,1.79999936,0.305,0,1.13671666
0.306,1.79999936,0.306,0,1.1371019
0.307,1.79999936,0.307,0,1.13748465
0.308,1.79999936,0.308,0,1.13786548
0.309,1.79999936,0.309,0,1.13824423
0.31,1.79999936,0.31,0,1.1386207
0.311,1.79999936,0.311,0,1.13899503
0.312,1.79999936,0.312,0,1.13936703
0.313,1.79999936,0.313,0,1.13973681
0.314,1.79999936,0.314,0,1.14010442
0.315,1.79999936,0.315,0,1.14046962
0.316,1.79999936,0.316,0,1.14083262
0.317,1.79999936,0.317,0,1.14119334
0.318,1.79999936,0.318,0,1.14155171
0.319,1.79999936,0.319,0,1.14190762
0.32,1.79999936,0.32,0,1.14226117
0.321,1.79999936,0.321,0,1.14261242
0.322,1.79999936,0.322,0,1.14296103
0.323,1.79999936,0.323,0,1.14330735
0.324,1.79999936,0.324,0,1.14365116
0.325,1.79999936,0.325,0,1.14399248
0.326,1.79999937,0.326,0,1.14433125
0.327,1.79999936,0.327,0,1.14466756
0.328,1.79999936,0.328,0,1.14500131
0.329,1.79999936,0.329,0,1.14533242
0.33,1.79999936,0.33,0,1.14566103
0.331,1.79999936,0.331,0,1.14598707
0.332,1.79999937,0.332,0,1.14631039
0.333,1.79999936,0.333,0,1.14663117
0.334,1.79999937,0.334,0,1.14694919
0.335,1.79999936,0.335,0,1.14726459
0.336,1.79999937,0.336,0,1.14757741
0.337,1.79999937,0.337,0,1.1478874
0.338,1.79999937,0.338,0,1.14819466
0.339,1.79999937,0.339,0,1.14849931
0.34,1.79999936,0.34,0,1.14880114
0.341,1.79999937,0.341,0,1.14910025
0.342,1.79999937,0.342,0,1.14939653
0.343,1.79999937,0.343,0,1.14968988
0.344,1.79999937,0.344,0,1.14998078
0.345,1.79999936,0.345,0,1.15026859
0.346,1.79999937,0.346,0,1.15055384
0.347,1.79999937,0.347,0,1.15083612
0.348,1.79999937,0.348,0,1.15111544
0.349,1.79999937,0.349,0,1.15139194
0.35,1.79999937,0.35,0,1.15166556
0.351,1.79999937,0.351,0,1.1519364
0.352,1.79999937,0.352,0,1.15220426
0.353,1.79999937,0.353,0,1.1524694
0.354,1.79999937,0.354,0,1.15273144
0.355,1.79999937,0.355,0,1.15299049
0.356,1.79999937,0.356,0,1.15324693
0.357,1.79999937,0.357,0,1.15350017
0.358,1.79999937,0.358,0,1.15375064
0.359,1.79999937,0.359,0,1.1539983
0.36,1.79999937,0.36,0,1.15424283
0.361,1.79999937,0.361,0,1.15448428
0.362,1.79999937,0.362,0,1.15472303
0.363,1.79999937,0.363,0,1.15495879
0.364,1.79999937,0.364,0,1.15519155
0.365,1.79999937,0.365,0,1.15542137
0.366,1.79999937,0.366,0,1.15564811
0.367,1.79999937,0.367,0,1.15587214
0.368,1.79999937,0.368,0,1.15609293
0.369,1.79999937,0.369,0,1.15631105
0.37,1.79999937,0.37,0,1.15652621
0.371,1.79999937,0.371,0,1.15673828
0.372,1.79999937,0.372,0,1.15694751
0.373,1.79999937,0.373,0,1.15715403
0.374,1.79999937,0.374,0,1.15735726
0.375,1.79999937,0.375,0,1.15755789
0.376,1.79999937,0.376,0,1.15775541
0.377,1.79999937,0.377,0,1.15795006
0.378,1.79999937,0.378,0,1.15814182
0.379,1.79999937,0.379,0,1.15833076
0.38,1.79999937,0.38,0,1.15851654
0.381,1.79999937,0.381,0,1.15869984
0.382,1.79999937,0.382,0,1.15888025
0.383,1.79999937,0.383,0,1.15905767
0.384,1.79999937,0.384,0,1.15923219
0.385,1.79999937,0.385,0,1.15940413
0.386,1.79999937,0.386,0,1.15957328
0.387,1.79999937,0.387,0,1.15973941
0.388,1.79999937,0.388,0,1.15990305
0.389,1.79999937,0.389,0,1.16006361
0.39,1.79999937,0.39,0,1.16022176
0.391,1.79999937,0.391,0,1.16037701
0.392,1.79999937,0.392,0,1.1605298
0.393,1.79999937,0.393,0,1.16067963
0.394,1.79999937,0.394,0,1.16082703
0.395,1.79999937,0.395,0,1.1609716
0.396,1.79999937,0.396,0,1.16111368
0.397,1.79999937,0.397,0,1.16125321
0.398,1.79999937,0.398,0,1.16139026
0.399,1.79999937,0.399,0,1.16152455
0.4,1.79999937,0.4,0,1.16165648
0.401,1.79999937,0.401,0,1.16178585
0.402,1.79999937,0.402,0,1.16191286
0.403,1.79999937,0.403,0,1.16203732
0.404,1.79999937,0.404,0,1.16215923
0.405,1.79999937,0.405,0,1.16227892
0.406,1.79999937,0.406,0,1.16239604
0.407,1.79999937,0.407,0,1.16251127
0.408,1.79999937,0.408,0,1.16262372
0.409,1.79999937,0.409,0,1.16273406
0.41,1.79999937,0.41,0,1.1628423
0.411,1.79999937,0.411,0,1.16294803
0.412,1.79999937,0.412,0,1.16305178
0.413,1.79999937,0.413,0,1.16315313
0.414,1.79999937,0.414,0,1.16325259
0.415,1.79999937,0.415,0,1.16334983
0.416,1.79999937,0.416,0,1.16344501
0.417,1.79999937,0.417,0,1.16353814
0.418,1.79999937,0.418,0,1.16362923
0.419,1.79999937,0.419,0,1.16371823
0.42,1.79999937,0.42,0,1.16380527
0.421,1.79999937,0.421,0,1.16389055
0.422,1.79999937,0.422,0,1.16397384
0.423,1.79999937,0.423,0,1.16405508
0.424,1.79999937,0.424,0,1.16413482
0.425,1.79999937,0.425,0,1.16421243
0.426,1.79999937,0.426,0,1.16428837
0.427,1.79999937,0.427,0,1.16436247
0.428,1.79999937,0.428,0,1.16443503
0.429,1.79999937,0.429,0,1.16450544
0.43,1.79999937,0.43,0,1.16457494
0.431,1.79999937,0.431,0,1.16464232
0.432,1.79999937,0.432,0,1.1647082
0.433,1.79999937,0.433,0,1.16477246
0.434,1.79999937,0.434,0,1.16483502
0.435,1.79999937,0.435,0,1.16489648
0.436,1.79999937,0.436,0,1.16495589
0.437,1.79999937,0.437,0,1.16501432
0.438,1.79999937,0.438,0,1.16507105
0.439,1.79999937,0.439,0,1.16512664
0.44,1.79999937,0.44,0,1.16518056
0.441,1.79999937,0.441,0,1.16523304
0.442,1.79999937,0.442,0,1.16528441
0.443,1.79999937,0.443,0,1.16533474
0.444,1.79999937,0.444,0,1.16538341
0.445,1.79999937,0.445,0,1.1654311
0.446,1.79999937,0.446,0,1.16547731
0.447,1.79999937,0.447,0,1.16552222
0.448,1.79999937,0.448,0,1.16556632
0.449,1.79999937,0.449,0,1.16560908
0.45,1.79999937,0.45,0,1.16565084
0.451,1.79999937,0.451,0,1.16569138
0.452,1.79999937,0.452,0,1.16573112
0.453,1.79999937,0.453,0,1.16576976
0.454,1.79999937,0.454,0,1.16580713
0.455,1.79999937,0.455,0,1.16584365
0.456,1.79999937,0.456,0,1.16587899
0.457,1.79999937,0.457,0,1.16591354
0.458,1.79999937,0.458,0,1.16594715
0.459,1.79999937,0.459,0,1.16597998
0.46,1.79999937,0.46,0,1.1660119
0.461,1.79999937,0.461,0,1.16604321
0.462,1.79999937,0.462,0,1.16607296
0.463,1.79999937,0.463,0,1.16610227
0.464,1.79999937,0.464,0,1.16613091
0.465,1.79999937,0.465,0,1.16615863
0.466,1.79999937,0.466,0,1.16618552
0.467,1.79999937,0.467,0,1.16621182
0.468,1.79999937,0.468,0,1.16623744
0.469,1.79999937,0.469,0,1.16626214
0.47,1.79999937,0.47,0,1.16628624
0.471,1.79999937,0.471,0,1.16630974
0.472,1.79999937,0.472,0,1.16633241
0.473,1.79999937,0.473,0,1.16635473
0.474,1.79999937,0.474,0,1.16637608
0.475,1.79999937,0.475,0,1.16639688
0.476,1.79999937,0.476,0,1.1664173
0.477,1.79999937,0.477,0,1.16643701
0.478,1.79999937,0.478,0,1.16645634
0.479,1.79999937,0.479,0,1.16647493
0.48,1.79999937,0.48,0,1.16649307
0.481,1.79999937,0.481,0,1.16651068
0.482,1.79999937,0.482,0,1.16652771
0.483,1.79999937,0.483,0,1.16654451
0.484,1.79999937,0.484,0,1.16656044
0.485,1.79999937,0.485,0,1.16657588
0.486,1.79999937,0.486,0,1.16659124
0.487,1.79999937,0.487,0,1.16660601
0.488,1.79999937,0.488,0,1.16662042
0.489,1.79999937,0.489,0,1.16663441
0.49,1.79999937,0.49,0,1.16664772
0.491,1.79999937,0.491,0,1.16666079
0.492,1.79999937,0.492,0,1.1666736
0.493,1.79999937,0.493,0,1.16668588
0.494,1.79999937,0.494,0,1.16669782
0.495,1.79999937,0.495,0,1.16670972
0.496,1.79999937,0.496,0,1.16672079
0.497,1.79999937,0.497,0,1.16673177
0.498,1.79999937,0.498,0,1.16674253
0.499,1.79999937,0.499,0,1.16675304
0.5,1.79999937,0.5,0,1.16676313
0.501,1.79999937,0.501,0,1.16677274
0.502,1.79999937,0.502,0,1.16678199
0.503,1.79999937,0.503,0,1.16679135
0.504,1.79999937,0.504,0,1.16680018
0.505,1.79999937,0.505,0,1.1668088
0.506,1.79999937,0.506,0,1.16681698
0.507,1.79999937,0.507,0,1.16682535
0.508,1.79999937,0.508,0,1.16683316
0.509,1.79999937,0.509,0,1.16684105
0.51,1.79999937,0.51,0,1.16684814
0.511,1.79999937,0.511,0,1.16685553
0.512,1.79999937,0.512,0,1.16686228
0.513,1.79999937,0.513,0,1.1668691
0.514,1.79999937,0.514,0,1.16687563
0.515,1.79999937,0.515,0,1.166882
0.516,1.79999937,0.516,0,1.1668882
0.517,1.79999937,0.517,0,1.16689429
0.518,1.79999937,0.518,0,1.16690003
0.519,1.79999937,0.519,0,1.16690559
0.52,1.79999937,0.52,0,1.16691126
0.521,1.79999937,0.521,0,1.16691646
0.522,1.79999937,0.522,0,1.16692165
0.523,1.79999937,0.523,0,1.16692648
0.524,1.79999937,0.524,0,1.16693135
0.525,1.79999937,0.525,0,1.16693602
0.526,1.79999937,0.526,0,1.16694077
0.527,1.79999937,0.527,0,1.16694494
0.528,1.79999937,0.528,0,1.16694935
0.529,1.79999937,0.529,0,1.16695343
0.53,1.79999937,0.53,0,1.16695757
0.531,1.79999937,0.531,0,1.16696136
0.532,1.79999937,0.532,0,1.16696506
0.533,1.79999937,0.533,0,1.16696868
0.534,1.79999937,0.534,0,1.16697237
0.535,1.79999937,0.535,0,1.16697566
0.536,1.79999937,0.536,0,1.16697888
0.537,1.79999937,0.537,0,1.16698208
0.538,1.79999937,0.538,0,1.16698529
0.539,1.79999937,0.539,0,1.16698844
0.54,1.79999937,0.54,0,1.16699137
0.541,1.79999937,0.541,0,1.16699409
0.542,1.79999937,0.542,0,1.16699717
0.543,1.79999937,0.543,0,1.16699971
0.544,1.79999937,0.544,0,1.16700252
0.545,1.79999937,0.545,0,1.16700485
0.546,1.79999937,0.546,0,1.16700726
0.547,1.79999937,0.547,0,1.1670098
0.548,1.79999937,0.548,0,1.16701184
0.549,1.79999937,0.549,0,1.16701413
0.55,1.79999937,0.55,0,1.16701621
0.551,1.79999937,0.551,0,1.1670183
0.552,1.79999937,0.552,0,1.16702035
0.553,1.79999937,0.553,0,1.16702243
0.554,1.79999937,0.554,0,1.16702415
0.555,1.79999937,0.555,0,1.16702603
0.556,1.79999937,0.556,0,1.16702795
0.557,1.79999937,0.557,0,1.16702953
0.558,1.79999937,0.558,0,1.16703118
0.559,1.79999937,0.559,0,1.16703296
